01 03 00 00 00 02 C4 0B
01 03 00 01 00 02 95 CB
01 03 00 08 00 02 45 C9
01 03 00 09 00 02 14 09
01 03 00 0A 00 02 E4 09
01 03 00 0B 00 02 B5 C9
01 03 00 0C 00 01 44 09
01 03 00 0D 00 01 15 C9
01 03 00 0E 00 01 E5 C9
01 03 00 0F 00 01 B4 09
01 03 00 10 00 01 85 CF
01 03 00 11 00 01 D4 0F
01 03 00 15 00 01 95 CE
